time,V_C,I_L,V_IN
0.0,0.0,0.0,-2.132698391566809
5e-07,-0.019816449530576777,-0.023857359659193077,-10.606966790097164
1e-06,-0.16206976115479843,-0.13581209373521202,-20.214918339248573
1.5e-06,-0.5966816159676451,-0.3382175764700164,-29.923465617834214
2e-06,-1.4610135222498997,-0.6089517170336343,-37.3026519845973
2.4999999999999998e-06,-2.8988359294086123,-0.9483145189144642,-41.195114823992576
3e-06,-4.98031776904544,-1.2972159601037916,-45.949982303476105
3.5e-06,-7.70223763172377,-1.6401278379146256,-48.11479298916502
4e-06,-11.053630221781525,-1.9791057423165204,-49.653662404123594
4.5e-06,-15.01620585013196,-2.2999932792087097,-52.487052633917045
4.9999999999999996e-06,-19.554924956335736,-2.5966705123407774,-54.080732928224634
5.5e-06,-24.594534163937034,-2.8409686437306023,-54.85199532578989
6e-06,-30.035188292262006,-3.0215247140667776,-56.328804607245395
6.5e-06,-35.76792796186973,-3.1617871189862776,-57.66536328076573
7e-06,-41.715310256860974,-3.256114521592681,-59.212456909722206
7.499999999999999e-06,-47.79725579810837,-3.300418226446007,-59.83856238885227
8e-06,-53.90784290595671,-3.2848439022416214,-57.79900391829297
8.5e-06,-59.91934281380348,-3.18706414534433,-52.81069370545595
9e-06,-65.6668810174307,-2.993065757655972,-48.863847351422365
9.499999999999999e-06,-70.96177092980172,-2.711247672782826,-42.47770818866432
9.999999999999999e-06,-75.64593649484999,-2.3488320613385847,-39.800963131380854
1.05e-05,-79.59411560606803,-1.9115506552783903,-38.25469972659883
1.1e-05,-82.69780327705841,-1.429753581175932,-35.43843741971125
1.15e-05,-84.87647643512118,-0.9178167964095263,-32.292206296703014
1.2e-05,-86.07605809066628,-0.3797809603602693,-30.66909376049322
1.2499999999999999e-05,-86.26245788327857,0.17744443705756968,-30.11213255756584
1.3e-05,-85.41776722002926,0.7314845099199676,-30.90806107190728
1.35e-05,-83.58501698070378,1.2449532707540387,-32.435208367226636
1.4e-05,-80.84259348444438,1.7046803914034423,-31.93312058332944
1.45e-05,-77.28800545142418,2.1235714816415836,-30.54858962660468
1.4999999999999999e-05,-72.99215212721133,2.5036512859651707,-29.96608344838633
1.55e-05,-68.03411429730102,2.84664937626211,-27.63605374318928
1.6e-05,-62.478474613919175,3.1553163516102987,-23.97394770411136
1.6499999999999998e-05,-56.38354958922581,3.418093703684785,-18.535312461493156
1.7e-05,-49.826643744678776,3.659177973705245,-12.50164158686795
1.75e-05,-42.83779534649551,3.8905708594030743,-8.936461920822955
1.8e-05,-35.44288063378946,4.084522412060244,-6.985750685145579
1.85e-05,-27.75790458898495,4.214137656981397,-3.6838930669242953
1.8999999999999998e-05,-19.89470092146172,4.272996373122147,0.7925733123356378
1.95e-05,-11.95596181225698,4.278830663406537,4.963455480854469
1.9999999999999998e-05,-4.03313584321474,4.26977907267792,9.440959850098773
2.05e-05,3.84522075476187,4.2329479405892005,15.61717012277397
2.1e-05,11.654845459839638,4.19412489387123,20.559356791030815
2.1499999999999997e-05,19.356622112904976,4.120613321964604,25.43063185717099
2.2e-05,26.896386575304135,4.027896043645867,29.22930801066822
2.2499999999999998e-05,34.21990718427471,3.890395990571264,32.384920553406054
2.3e-05,41.24570604406539,3.6735103507685753,37.52622846841777
2.35e-05,47.859741380723854,3.461549353458256,44.433161225411055
2.4e-05,54.09564675975111,3.2788483419235472,52.92652362746977
2.45e-05,60.06820695804331,3.1738616430679287,63.06155671251288
2.4999999999999998e-05,65.8618306606664,3.0871884434860193,72.5099450730565
2.55e-05,71.48624071550779,2.9993496554444192,81.5118617371748
2.6e-05,77.03044705417123,2.994250007550788,88.70681325278753
2.65e-05,82.58357894700077,3.000899896387335,94.88032927401466
2.7e-05,88.13351165225647,2.9962368056924116,99.64314395983021
2.7499999999999998e-05,93.69662156709701,3.0108494216731176,103.67530740317122
2.8e-05,99.26516164657305,2.9980120138699555,107.44044856561784
2.8499999999999998e-05,104.78351150086664,2.9622462157443423,109.84869303829582
2.9e-05,110.23141836434684,2.9155572847247315,114.71146083655248
2.95e-05,115.57595888995036,2.8489801557269563,116.6158352220765
2.9999999999999997e-05,120.75954586715227,2.7437285669918037,115.26728970820231
3.05e-05,125.69192754450536,2.579288556485005,115.70941299742272
3.1e-05,130.2743288652496,2.3733060565806627,118.02230628404635
3.15e-05,134.46384913598195,2.1477663777119957,121.40917863794458
3.2e-05,138.23686894987617,1.9181533938017998,125.28628961376478
3.25e-05,141.5868357766544,1.6939826328444125,127.7761524622642
3.2999999999999996e-05,144.52434982913198,1.4784851941524413,127.43990166605423
3.35e-05,147.05990227020794,1.251822507638554,125.83486772885605
3.4e-05,149.14887235756967,0.9989481189405379,122.96115619354788
3.45e-05,150.73726662859315,0.7160716065700777,121.43851377043534
3.5e-05,151.7751067157249,0.4014372069487742,119.23356209655284
3.5499999999999996e-05,152.1950365432168,0.044552507010193976,114.76978970673946
3.6e-05,151.93013087452167,-0.32816960273004564,109.47865060321536
3.65e-05,150.9559629366839,-0.7302857327812153,104.74243744939672
3.7e-05,149.20017138571527,-1.1618696966651534,98.72437063654681
3.75e-05,146.62903801352257,-1.6204213281991906,91.18778534646479
3.7999999999999995e-05,143.17010037432945,-2.0946863297812337,84.44983608824086
3.85e-05,138.83433462971567,-2.5979735576351497,78.56366113544019
3.9e-05,133.5450786940639,-3.0994968907721114,71.9136894982434
3.95e-05,127.3480653342565,-3.608466873866663,64.71786779244485
3.9999999999999996e-05,120.19206727895285,-4.113508279367048,57.65722363029768
4.0499999999999995e-05,112.10565175952594,-4.626186764437248,47.662070556806064
4.1e-05,102.9706626439931,-5.367826423129825,34.812433611123815
4.15e-05,90.54689826109184,-8.264899819605152,21.280890121957906
4.2e-05,72.39480067450552,-10.98794639751652,8.893851876106579
4.2499999999999996e-05,50.63744754958343,-12.328952887818229,-0.4921217358933362
4.2999999999999995e-05,27.47145710454646,-12.501151103818497,-4.91964671811067
4.35e-05,5.304537240018897,-11.172930083909758,-6.294035810392627
4.4e-05,-13.208768894188605,-8.701202889563872,-7.358464892259958
4.45e-05,-26.71501336655678,-5.944800958629112,-8.890044642411407
4.4999999999999996e-05,-36.459280444832324,-4.855217724762125,-12.244438838384875
4.5499999999999995e-05,-44.98518234696784,-4.364580781769886,-15.756696628992565
4.6e-05,-52.62122708663274,-3.8766753011300508,-19.128343159109534
4.65e-05,-59.33746102774185,-3.373726873091423,-21.851160521953673
4.7e-05,-65.09367582788987,-2.845676037487403,-25.34581808078906
4.7499999999999996e-05,-69.87854129711806,-2.3189878617531368,-26.743790965398496
4.8e-05,-73.6861690693071,-1.7884688511349933,-24.453703595882807
4.85e-05,-76.48460947742356,-1.226561643977278,-21.604733448604986
4.9e-05,-78.20238680110856,-0.6241227097019716,-17.898347606876445
4.95e-05,-78.75883189774008,0.025679870168819896,-13.209673926412481
4.9999999999999996e-05,-78.10508646167268,0.6806187235029303,-9.469201423795377
5.05e-05,-76.24915703742266,1.3213594211087132,-5.931196137343315
5.1e-05,-73.20278592621065,1.9661076640631556,-2.6659164137183176
5.15e-05,-68.97491052056652,2.6025018591847067,-0.04714639941771684
5.2e-05,-63.59423761267754,3.195289391108063,0.6776929627347307
5.2499999999999995e-05,-57.17780947842067,3.7205896328732377,1.23142186828022
5.3e-05,-49.85620161907137,4.184274663556468,3.513694809209899
5.35e-05,-41.711410647617825,4.6123461200494225,9.205352461342036
5.4e-05,-32.76597498359429,5.112780763551235,17.899434644606426
5.4499999999999997e-05,-22.03344455170984,6.693447832100018,29.785890720400815
5.4999999999999995e-05,-7.791711732810134,8.488906919938309,39.814725596955476
5.55e-05,9.047822195559437,9.462402475624641,49.75172793618035
5.6e-05,26.82155318868965,9.562059945501504,60.023967607234155
5.65e-05,44.192870500698646,9.251844792401897,72.71784182041898
5.6999999999999996e-05,60.993844667660554,8.6373352759204,82.23694861915602
5.7499999999999995e-05,76.04092220881702,7.639659103841957,87.55191962982278
5.8e-05,89.08007893251062,6.347153522665422,88.8854129123277
5.85e-05,99.65511422861007,5.191662151869236,84.62019877990113
5.9e-05,108.71668312928554,4.644059797776033,77.96740818061177
5.9499999999999996e-05,116.84137654272328,4.124913606804525,70.09170726530756
5.9999999999999995e-05,123.90329176875473,3.471592490084853,63.0629740066592
6.05e-05,129.62964026938786,2.698802989103838,58.463966252254096
6.1e-05,133.8707311285664,1.8752865339974463,58.73853837899148
6.149999999999999e-05,136.57978678637008,1.0589616799449844,61.24574134951449
6.2e-05,137.80762840028672,0.26795365735561183,61.887749185837805
6.25e-05,137.59549640319239,-0.49640394470432647,60.24510563153784
6.3e-05,135.98792562816797,-1.2300218040539623,58.378819948951374
6.35e-05,133.03527058290427,-1.9552980175554686,54.97251802145486
6.4e-05,128.7560321269607,-2.6591776092798254,55.49866237478615
6.45e-05,123.24909413568245,-3.2727377001757594,58.74602019402617
6.5e-05,116.68770409471483,-3.7967606201059727,59.93818459331543
6.549999999999999e-05,109.2434162628618,-4.236408524844647,57.616256828130375
6.599999999999999e-05,101.06243798316245,-4.594546572465406,57.19323388902042
6.65e-05,92.25468607223134,-4.902645887991483,57.62676682967526
6.7e-05,82.88936210999282,-5.195291568303833,59.338194863461865
6.75e-05,73.18257028967048,-5.244917838287588,57.51323783199232
6.8e-05,63.511125745596985,-5.157926254564866,53.6214143176845
6.85e-05,54.08853588435703,-5.030918898982585,49.730623327887365
6.9e-05,44.97079368162934,-4.814608875699221,45.981052357274706
6.95e-05,36.27369250216092,-4.568963085978877,41.94338418885235
7e-05,28.047670066091737,-4.315271252272718,38.73777682003645
7.049999999999999e-05,20.31192920460907,-4.047124135538853,33.81179969748549
7.099999999999999e-05,13.086382312627098,-3.75438679687491,28.637653631452856
7.15e-05,6.414392569764729,-3.4471984591829665,24.486492862926124
7.2e-05,0.321942690660304,-3.1288460765790873,22.284131835366303
7.25e-05,-5.158840334160164,-2.7890653868206057,21.390974158605367
7.3e-05,-9.976940516722063,-2.4127333620228035,17.72921606465016
7.35e-05,-14.096214234407949,-2.030598208979953,11.45280116154655
7.4e-05,-17.53770391577062,-1.6771251404257097,8.037694301222167
7.45e-05,-20.342545612888728,-1.3613059614512346,5.973569966836742
7.5e-05,-22.57124190146606,-1.0665358918401326,3.6184815008346667
7.549999999999999e-05,-24.26922228703581,-0.7663997733947004,4.455796691158575
7.599999999999999e-05,-25.390343421242733,-0.4403874585959895,6.789746294067344
7.65e-05,-25.891152648543144,-0.09593652184386656,11.283577816734828
7.7e-05,-25.715987143723808,0.291969871808611,16.916489356489322
7.75e-05,-24.793262538081827,0.7045675049617921,26.888562727965247
7.8e-05,-23.05296192131145,1.2013907562817518,39.83194169960492
7.85e-05,-20.28516036253223,1.795025491443888,51.64076368230524
7.9e-05,-16.324081798191294,2.5005749370756543,63.7559669219149
7.95e-05,-11.028566620290798,3.206062262487869,76.39136749086879
7.999999999999999e-05,-4.413380481584738,3.9476094977917753,89.48905432626617
8.049999999999999e-05,3.67205728010933,4.7871585942179875,99.3538379992607
8.099999999999999e-05,15.477813083126115,8.746751408475305,108.82491467654418
8.15e-05,36.25896573808991,13.286982410751689,117.98746470965139
8.2e-05,63.443565656304706,15.572102338327593,121.5306370523878
8.25e-05,92.36301231043237,15.23947711014536,119.54994073940802
8.3e-05,118.30708185342986,12.406786605949504,112.2939254521013
8.35e-05,137.38693595349093,8.169188718316796,104.28066165105136
8.4e-05,148.88703529286443,4.866880058798642,98.98478304533384
8.45e-05,157.1916012508041,4.111925708646862,97.39682473162858
8.499999999999999e-05,164.08546059834117,3.329111936803438,97.28830506052516
8.549999999999999e-05,169.515947834794,2.5350002290338374,99.33833626276709
8.599999999999999e-05,173.46982483270665,1.7321244643211882,97.64106606759265
8.65e-05,175.90240985272928,0.8888742965531242,91.45126473094487
8.7e-05,176.7392027900805,0.012608512055285875,84.89295847653332
8.75e-05,175.92554288174765,-0.9007811159259562,79.55038508075751
8.8e-05,173.39584739823187,-1.8260988168613028,73.55545928508893
8.85e-05,169.15388300269748,-2.7637372121096657,63.69284657436626
8.9e-05,163.14299629766253,-3.7202072273668074,52.96691866935418
8.95e-05,155.31985030898608,-4.729820737901321,41.087334006962834
8.999999999999999e-05,143.1869611120313,-9.625949845589439,31.575610347443025
9.049999999999999e-05,119.46722978833175,-15.461320797313952,23.80825395658517
9.099999999999999e-05,87.62479889547433,-18.445449953148312,14.971401894445531
9.15e-05,52.999514890999315,-18.449507958472577,5.19828334773416
9.2e-05,20.383453512455056,-16.58751185497419,-5.708673497722324
9.25e-05,-7.6719684060120805,-13.587146705489525,-15.210276965891014
9.3e-05,-29.61619418057638,-9.94504936687071,-21.90077125696799
9.35e-05,-44.77747998674627,-6.511151546973917,-28.831173831127973
9.4e-05,-54.963920674270994,-4.917195900742168,-34.37998853450735
9.449999999999999e-05,-63.62240509961213,-4.445609209226652,-40.241410112825875
9.499999999999999e-05,-71.44748413105594,-4.008181480814543,-47.027964462393186
9.549999999999999e-05,-78.49068687194476,-3.6124082321723234,-53.7897406374264
9.6e-05,-84.81949539141739,-3.213384067410234,-61.80813673044501
9.65e-05,-90.43006336402705,-2.8715762089822605,-70.67912465225278
9.7e-05,-95.46110442075825,-2.561918017080206,-79.63571235839186
9.75e-05,-99.95473784601249,-2.295451310035687,-83.46015891678525
9.8e-05,-103.95565687473598,-2.0285668137262842,-85.64375963846109
9.85e-05,-107.48050982783566,-1.7790787084623647,-88.38436649603636
9.9e-05,-110.53795606806818,-1.5201033974969473,-90.24810449388309
9.949999999999999e-05,-113.10610141859212,-1.2504604422084438,-91.62422083164324
9.999999999999999e-05,-115.18429679548319,-0.9900679685727045,-92.51268528300521
0.00010049999999999999,-116.77579505405453,-0.7342576353703362,-91.23530713744108
0.000101,-117.87912931677992,-0.4555788191523098,-88.07954514615645
0.0001015,-118.43939023571654,-0.14499821512010225,-85.92748379266342
0.000102,-118.40579638067634,0.181805886031018,-85.22139358154593
0.0001025,-117.76725488985788,0.505278989830467,-86.24955791851129
0.000103,-116.53852086458551,0.8111784123756048,-92.3672174928858
0.0001035,-114.8536952315918,0.9897192849749428,-100.67939637665248
0.000104,-112.92517086803932,1.0798015133967394,-104.36722386669453
0.00010449999999999999,-110.87820621568562,1.1228024896570266,-103.0667539199641
0.00010499999999999999,-108.7691512191832,1.1605257166784484,-100.79881664903712
0.00010549999999999999,-106.59339549442666,1.1865167492572977,-97.09109152035492
0.000106,-104.34313977725309,1.2507640978292032,-90.82223007233728
0.0001065,-101.9392471556981,1.357410341183151,-77.86370750124786
0.000107,-99.21085234647036,1.6157367670649827,-62.542252486791064
0.0001075,-95.93347225716144,1.9164936840766826,-49.24727765529678
0.000108,-92.05456631405593,2.286015737052596,-40.43500043624544
0.0001085,-87.42487873206423,2.721669827661506,-36.31004548372031
0.00010899999999999999,-81.99124201135278,3.139159191117588,-33.3513196878071
0.00010949999999999999,-75.8295164839836,3.5066198052907867,-32.84600665372351
0.00010999999999999999,-69.06595740299136,3.7834211148030765,-35.8867696813562
0.00011049999999999999,-61.87118577206792,3.967203411699488,-40.92968094490254
0.000111,-54.46891025845542,4.001259634792166,-46.70162271534253
0.0001115,-47.11615218278344,3.911349531258654,-48.01855891591687
0.000112,-40.00583954972231,3.75198595805585,-46.255161922858875
0.0001125,-33.25258364992993,3.549928502014037,-43.285008863201455
0.000113,-26.90040357451588,3.308681787677292,-37.41941212217951
0.0001135,-20.997487820123872,3.056472178501195,-31.74294052784095
0.00011399999999999999,-15.558577361054603,2.820910524583671,-27.61215830364735
0.00011449999999999999,-10.549770439046604,2.6083144713302877,-20.916872739884866
0.00011499999999999999,-5.907813067232096,2.4130520126053594,-13.735150120109534
0.00011549999999999999,-1.5990348557101157,2.2437895849374176,-9.451403956788894
0.000116,2.4111405194542304,2.085615594792441,-7.088357781061606
0.0001165,6.115831699929525,1.910000805856419,-7.652387583314784
0.000117,9.442314560312276,1.6750978093908673,-10.88297514086243
0.0001175,12.305405223166266,1.4081323395779104,-11.36599754436029
0.000118,14.666827253261804,1.141221096583986,-8.080767203142267
0.0001185,16.53111284760155,0.8797776827169588,-6.842467807920331
0.00011899999999999999,17.913021684656986,0.6119634042466372,-5.6228155541915035
0.00011949999999999999,18.800490555635193,0.3472765124207925,-5.863967560093442
0.00011999999999999999,19.20334924257346,0.08800119985944854,-7.682235377116839
0.00012049999999999999,19.108383844495044,-0.1963607408691776,-11.129129705826404
0.000121,18.47191758823026,-0.4886572601919323,-16.083549708129393
0.0001215,17.27537777346768,-0.8091594062866552,-21.035947643701398
0.000122,15.44896307240225,-1.159247914070843,-26.730331149318594
0.0001225,12.961565822923857,-1.5168667100027866,-31.373932352173263
0.00012299999999999998,9.797094938673165,-1.9049086560582684,-35.303914789825164
0.0001235,5.9123266560397045,-2.2793395119865325,-39.50354843866711
0.000124,1.3542052954841077,-2.653891991182128,-45.206222615575854
0.0001245,-3.9058013769942077,-3.021665476704979,-51.11181251009274
0.000125,-9.836785317708552,-3.378850473952834,-54.391567551165416
0.0001255,-16.393521542636464,-3.697666200336533,-56.04739703102194
0.000126,-23.47529206986549,-3.933928697536389,-58.8905561572324
0.00012649999999999998,-30.96121894350973,-4.143312764315851,-60.90885727744583
0.000127,-38.78174070067948,-4.29039754064032,-61.624033609760964
0.00012749999999999998,-46.797909739437756,-4.351252842460027,-64.69104780074568
0.000128,-54.86751793888695,-4.355243091795569,-67.05594285572954
0.0001285,-62.903694663092935,-4.313930907697511,-69.53104672847866
0.000129,-70.80854515778893,-4.2148532359636945,-70.86003499288007
0.0001295,-78.46596436108736,-4.044694870932207,-73.88601983283928
0.00013,-85.73746997008197,-3.807944281271821,-81.06675451379688
0.0001305,-92.61780597118279,-3.6247995163974887,-91.04223207675335
0.00013099999999999999,-99.18464753195605,-3.471103103904653,-99.72165178032131
0.0001315,-105.45497515303889,-3.309913297079591,-106.5960957975794
0.00013199999999999998,-111.48729479934113,-3.2080755614427985,-113.34781001122866
0.0001325,-117.33575759195023,-3.1042915490185257,-118.58852838289367
0.000133,-122.96098142235685,-2.9748708305180585,-125.61846378767962
0.0001335,-128.39515840176577,-2.8940546559979436,-132.61942070505742
0.000134,-133.69058539589162,-2.8276112870713033,-140.8260131078165
0.0001345,-138.84748823706303,-2.7524602489360066,-149.07050112067046
0.000135,-143.94187524351847,-2.7555117063470673,-156.07328493095585
0.0001355,-149.06470348077443,-2.776117808840715,-163.2384555358283
0.000136,-154.2214119241636,-2.798467502384194,-169.23362201484224
0.00013649999999999998,-159.44741948031057,-2.845070516011218,-171.93780545777062
0.000137,-164.73873904758673,-2.8610801590945045,-173.6099366849843
0.00013749999999999998,-170.01851362377565,-2.829798428245045,-173.31206641399007
0.000138,-175.20812583524975,-2.7640147219023397,-173.77875982936303
0.0001385,-180.2266084718878,-2.654560624001362,-171.97262095695794
0.000139,-184.982008116651,-2.471914639124981,-167.61095176525689
0.0001395,-189.3244790957206,-2.206369913745364,-167.77981373187575
0.00014,-193.1408626848093,-1.9044057719977123,-169.60572743433218
0.0001405,-196.37533740969636,-1.5915676872958628,-169.6074628262894
0.00014099999999999998,-199.01770423390522,-1.2645177455463315,-168.6571419608121
0.0001415,-201.04026173732245,-0.9154431794954394,-166.61799426331103
0.00014199999999999998,-202.38592627971994,-0.5355739849119687,-165.0058498273036
0.0001425,-203.01447030644155,-0.14130976141566104,-162.96098710030478
0.000143,-202.90385938336928,0.26592095191362924,-160.00391327243943
